Warning: can't find the initialization file spinit.

Note: No compatibility mode selected!


Circuit: 

Doing analysis at TEMP = 27.000000 and TNOM = 27.000000

Using SPARSE 1.3 as Direct Linear Solver
Note: v1: has no value, DC 0 assumed

No. of Data Rows : 348
                                        
                                        AC Analysis  Wed Jun 11 04:02:43  2025
--------------------------------------------------------------------------------
Index   frequency       v(3)                            
--------------------------------------------------------------------------------
0	1.000000e+06	1.000227e+00,	-1.13163e-02	
1	1.023341e+06	1.000238e+00,	-1.15808e-02	
2	1.047228e+06	1.000249e+00,	-1.18514e-02	
3	1.071671e+06	1.000261e+00,	-1.21284e-02	
4	1.096685e+06	1.000274e+00,	-1.24119e-02	
5	1.122284e+06	1.000286e+00,	-1.27020e-02	
6	1.148479e+06	1.000300e+00,	-1.29990e-02	
7	1.175286e+06	1.000314e+00,	-1.33029e-02	
8	1.202719e+06	1.000329e+00,	-1.36139e-02	
9	1.230792e+06	1.000344e+00,	-1.39322e-02	
10	1.259520e+06	1.000361e+00,	-1.42580e-02	
11	1.288919e+06	1.000378e+00,	-1.45915e-02	
12	1.319004e+06	1.000396e+00,	-1.49327e-02	
13	1.349792e+06	1.000414e+00,	-1.52820e-02	
14	1.381298e+06	1.000434e+00,	-1.56395e-02	
15	1.413539e+06	1.000454e+00,	-1.60054e-02	
16	1.446533e+06	1.000476e+00,	-1.63799e-02	
17	1.480297e+06	1.000498e+00,	-1.67632e-02	
18	1.514849e+06	1.000522e+00,	-1.71555e-02	
19	1.550208e+06	1.000547e+00,	-1.75570e-02	
20	1.586392e+06	1.000572e+00,	-1.79680e-02	
21	1.623420e+06	1.000599e+00,	-1.83887e-02	
22	1.661313e+06	1.000628e+00,	-1.88193e-02	
23	1.700090e+06	1.000657e+00,	-1.92600e-02	
24	1.739773e+06	1.000688e+00,	-1.97111e-02	
25	1.780381e+06	1.000721e+00,	-2.01729e-02	
26	1.821938e+06	1.000755e+00,	-2.06455e-02	
27	1.864464e+06	1.000791e+00,	-2.11294e-02	
28	1.907984e+06	1.000828e+00,	-2.16246e-02	
29	1.952518e+06	1.000867e+00,	-2.21316e-02	
30	1.998093e+06	1.000908e+00,	-2.26505e-02	
31	2.044731e+06	1.000951e+00,	-2.31818e-02	
32	2.092458e+06	1.000996e+00,	-2.37256e-02	
33	2.141299e+06	1.001043e+00,	-2.42823e-02	
34	2.191279e+06	1.001092e+00,	-2.48522e-02	
35	2.242427e+06	1.001144e+00,	-2.54357e-02	
36	2.294768e+06	1.001198e+00,	-2.60330e-02	
37	2.348331e+06	1.001254e+00,	-2.66445e-02	
38	2.403144e+06	1.001313e+00,	-2.72706e-02	
39	2.459237e+06	1.001375e+00,	-2.79115e-02	
40	2.516639e+06	1.001440e+00,	-2.85678e-02	
41	2.575381e+06	1.001508e+00,	-2.92397e-02	
42	2.635493e+06	1.001580e+00,	-2.99277e-02	
43	2.697009e+06	1.001654e+00,	-3.06321e-02	
44	2.759961e+06	1.001733e+00,	-3.13534e-02	
45	2.824382e+06	1.001814e+00,	-3.20919e-02	
46	2.890307e+06	1.001900e+00,	-3.28482e-02	
47	2.957771e+06	1.001990e+00,	-3.36227e-02	
48	3.026809e+06	1.002084e+00,	-3.44158e-02	
49	3.097459e+06	1.002182e+00,	-3.52280e-02	
50	3.169758e+06	1.002285e+00,	-3.60598e-02	
51	3.243745e+06	1.002393e+00,	-3.69117e-02	
52	3.319458e+06	1.002506e+00,	-3.77842e-02	
53	3.396939e+06	1.002625e+00,	-3.86779e-02	
54	3.476228e+06	1.002749e+00,	-3.95933e-02	

Index   frequency       v(3)                            
--------------------------------------------------------------------------------
55	3.557367e+06	1.002879e+00,	-4.05309e-02	
56	3.640401e+06	1.003015e+00,	-4.14915e-02	
57	3.725373e+06	1.003157e+00,	-4.24754e-02	
58	3.812328e+06	1.003306e+00,	-4.34835e-02	
59	3.901313e+06	1.003462e+00,	-4.45163e-02	
60	3.992375e+06	1.003626e+00,	-4.55745e-02	
61	4.085563e+06	1.003797e+00,	-4.66588e-02	
62	4.180925e+06	1.003977e+00,	-4.77699e-02	
63	4.278514e+06	1.004165e+00,	-4.89085e-02	
64	4.378380e+06	1.004361e+00,	-5.00754e-02	
65	4.480577e+06	1.004567e+00,	-5.12713e-02	
66	4.585160e+06	1.004783e+00,	-5.24971e-02	
67	4.692184e+06	1.005009e+00,	-5.37537e-02	
68	4.801705e+06	1.005246e+00,	-5.50418e-02	
69	4.913784e+06	1.005494e+00,	-5.63624e-02	
70	5.028478e+06	1.005753e+00,	-5.77165e-02	
71	5.145850e+06	1.006025e+00,	-5.91049e-02	
72	5.265961e+06	1.006310e+00,	-6.05288e-02	
73	5.388875e+06	1.006608e+00,	-6.19891e-02	
74	5.514659e+06	1.006921e+00,	-6.34869e-02	
75	5.643378e+06	1.007248e+00,	-6.50235e-02	
76	5.775103e+06	1.007590e+00,	-6.65998e-02	
77	5.909901e+06	1.007949e+00,	-6.82173e-02	
78	6.047846e+06	1.008324e+00,	-6.98770e-02	
79	6.189011e+06	1.008718e+00,	-7.15805e-02	
80	6.333471e+06	1.009130e+00,	-7.33290e-02	
81	6.481303e+06	1.009561e+00,	-7.51239e-02	
82	6.632585e+06	1.010013e+00,	-7.69669e-02	
83	6.787399e+06	1.010487e+00,	-7.88595e-02	
84	6.945826e+06	1.010982e+00,	-8.08032e-02	
85	7.107951e+06	1.011501e+00,	-8.28000e-02	
86	7.273860e+06	1.012045e+00,	-8.48514e-02	
87	7.443641e+06	1.012614e+00,	-8.69595e-02	
88	7.617386e+06	1.013211e+00,	-8.91262e-02	
89	7.795186e+06	1.013835e+00,	-9.13535e-02	
90	7.977136e+06	1.014489e+00,	-9.36437e-02	
91	8.163333e+06	1.015174e+00,	-9.59991e-02	
92	8.353877e+06	1.015891e+00,	-9.84219e-02	
93	8.548867e+06	1.016642e+00,	-1.00915e-01	
94	8.748409e+06	1.017429e+00,	-1.03481e-01	
95	8.952609e+06	1.018252e+00,	-1.06122e-01	
96	9.161575e+06	1.019115e+00,	-1.08841e-01	
97	9.375419e+06	1.020018e+00,	-1.11643e-01	
98	9.594254e+06	1.020964e+00,	-1.14529e-01	
99	9.818196e+06	1.021955e+00,	-1.17504e-01	
100	1.004737e+07	1.022992e+00,	-1.20570e-01	
101	1.028189e+07	1.024078e+00,	-1.23733e-01	
102	1.052188e+07	1.025215e+00,	-1.26996e-01	
103	1.076747e+07	1.026406e+00,	-1.30363e-01	
104	1.101880e+07	1.027653e+00,	-1.33840e-01	
105	1.127599e+07	1.028958e+00,	-1.37430e-01	
106	1.153919e+07	1.030325e+00,	-1.41140e-01	
107	1.180853e+07	1.031756e+00,	-1.44975e-01	
108	1.208416e+07	1.033254e+00,	-1.48941e-01	
109	1.236622e+07	1.034822e+00,	-1.53044e-01	
110	1.265486e+07	1.036463e+00,	-1.57292e-01	
111	1.295024e+07	1.038181e+00,	-1.61691e-01	
112	1.325252e+07	1.039979e+00,	-1.66249e-01	

Index   frequency       v(3)                            
--------------------------------------------------------------------------------
113	1.356185e+07	1.041861e+00,	-1.70975e-01	
114	1.387840e+07	1.043829e+00,	-1.75877e-01	
115	1.420235e+07	1.045889e+00,	-1.80965e-01	
116	1.453385e+07	1.048043e+00,	-1.86249e-01	
117	1.487309e+07	1.050297e+00,	-1.91741e-01	
118	1.522024e+07	1.052654e+00,	-1.97453e-01	
119	1.557551e+07	1.055118e+00,	-2.03396e-01	
120	1.593906e+07	1.057693e+00,	-2.09585e-01	
121	1.631110e+07	1.060385e+00,	-2.16035e-01	
122	1.669182e+07	1.063197e+00,	-2.22763e-01	
123	1.708143e+07	1.066134e+00,	-2.29784e-01	
124	1.748013e+07	1.069201e+00,	-2.37119e-01	
125	1.788814e+07	1.072401e+00,	-2.44788e-01	
126	1.830568e+07	1.075739e+00,	-2.52813e-01	
127	1.873296e+07	1.079220e+00,	-2.61219e-01	
128	1.917021e+07	1.082846e+00,	-2.70031e-01	
129	1.961767e+07	1.086622e+00,	-2.79278e-01	
130	2.007557e+07	1.090550e+00,	-2.88992e-01	
131	2.054416e+07	1.094632e+00,	-2.99206e-01	
132	2.102369e+07	1.098871e+00,	-3.09958e-01	
133	2.151441e+07	1.103267e+00,	-3.21289e-01	
134	2.201659e+07	1.107819e+00,	-3.33242e-01	
135	2.253048e+07	1.112524e+00,	-3.45868e-01	
136	2.305638e+07	1.117380e+00,	-3.59218e-01	
137	2.359454e+07	1.122377e+00,	-3.73353e-01	
138	2.414527e+07	1.127508e+00,	-3.88336e-01	
139	2.470885e+07	1.132757e+00,	-4.04239e-01	
140	2.528559e+07	1.138108e+00,	-4.21138e-01	
141	2.587579e+07	1.143537e+00,	-4.39119e-01	
142	2.647977e+07	1.149012e+00,	-4.58277e-01	
143	2.709784e+07	1.154495e+00,	-4.78713e-01	
144	2.773034e+07	1.159937e+00,	-5.00540e-01	
145	2.837761e+07	1.165277e+00,	-5.23883e-01	
146	2.903998e+07	1.170436e+00,	-5.48874e-01	
147	2.971781e+07	1.175321e+00,	-5.75661e-01	
148	3.041146e+07	1.179813e+00,	-6.04402e-01	
149	3.112131e+07	1.183768e+00,	-6.35268e-01	
150	3.184772e+07	1.187008e+00,	-6.68438e-01	
151	3.259109e+07	1.189315e+00,	-7.04105e-01	
152	3.335181e+07	1.190423e+00,	-7.42467e-01	
153	3.413029e+07	1.190010e+00,	-7.83722e-01	
154	3.492693e+07	1.187687e+00,	-8.28065e-01	
155	3.574217e+07	1.182983e+00,	-8.75675e-01	
156	3.657644e+07	1.175338e+00,	-9.26701e-01	
157	3.743019e+07	1.164088e+00,	-9.81239e-01	
158	3.830386e+07	1.148453e+00,	-1.03931e+00	
159	3.919792e+07	1.127534e+00,	-1.10081e+00	
160	4.011286e+07	1.100311e+00,	-1.16548e+00	
161	4.104914e+07	1.065659e+00,	-1.23284e+00	
162	4.200729e+07	1.022379e+00,	-1.30213e+00	
163	4.298779e+07	9.692607e-01,	-1.37221e+00	
164	4.399119e+07	9.051748e-01,	-1.44157e+00	
165	4.501800e+07	8.292113e-01,	-1.50818e+00	
166	4.606878e+07	7.408529e-01,	-1.56961e+00	
167	4.714409e+07	6.401763e-01,	-1.62300e+00	
168	4.824449e+07	5.280495e-01,	-1.66530e+00	
169	4.937059e+07	4.062792e-01,	-1.69346e+00	
170	5.052296e+07	2.776512e-01,	-1.70487e+00	

Index   frequency       v(3)                            
--------------------------------------------------------------------------------
171	5.170224e+07	1.458147e-01,	-1.69764e+00	
172	5.290904e+07	1.499355e-02,	-1.67102e+00	
173	5.414400e+07	-1.10443e-01,	-1.62554e+00	
174	5.540780e+07	-2.26466e-01,	-1.56298e+00	
175	5.670109e+07	-3.29821e-01,	-1.48620e+00	
176	5.802457e+07	-4.18314e-01,	-1.39872e+00	
177	5.937894e+07	-4.90907e-01,	-1.30431e+00	
178	6.076493e+07	-5.47629e-01,	-1.20655e+00	
179	6.218326e+07	-5.89361e-01,	-1.10860e+00	
180	6.363470e+07	-6.17570e-01,	-1.01298e+00	
181	6.512002e+07	-6.34046e-01,	-9.21559e-01	
182	6.664001e+07	-6.40678e-01,	-8.35591e-01	
183	6.819548e+07	-6.39301e-01,	-7.55795e-01	
184	6.978725e+07	-6.31596e-01,	-6.82477e-01	
185	7.141618e+07	-6.19034e-01,	-6.15636e-01	
186	7.308313e+07	-6.02865e-01,	-5.55059e-01	
187	7.478899e+07	-5.84122e-01,	-5.00398e-01	
188	7.653467e+07	-5.63641e-01,	-4.51230e-01	
189	7.832109e+07	-5.42086e-01,	-4.07096e-01	
190	8.014921e+07	-5.19977e-01,	-3.67533e-01	
191	8.202000e+07	-4.97713e-01,	-3.32094e-01	
192	8.393446e+07	-4.75595e-01,	-3.00355e-01	
193	8.589360e+07	-4.53848e-01,	-2.71925e-01	
194	8.789847e+07	-4.32633e-01,	-2.46446e-01	
195	8.995014e+07	-4.12063e-01,	-2.23597e-01	
196	9.204970e+07	-3.92216e-01,	-2.03088e-01	
197	9.419826e+07	-3.73139e-01,	-1.84661e-01	
198	9.639698e+07	-3.54856e-01,	-1.68086e-01	
199	9.864701e+07	-3.37376e-01,	-1.53160e-01	
200	1.009496e+08	-3.20696e-01,	-1.39704e-01	
201	1.033059e+08	-3.04803e-01,	-1.27557e-01	
202	1.057172e+08	-2.89678e-01,	-1.16579e-01	
203	1.081847e+08	-2.75296e-01,	-1.06645e-01	
204	1.107099e+08	-2.61631e-01,	-9.76455e-02	
205	1.132940e+08	-2.48654e-01,	-8.94827e-02	
206	1.159385e+08	-2.36336e-01,	-8.20704e-02	
207	1.186446e+08	-2.24646e-01,	-7.53319e-02	
208	1.214140e+08	-2.13555e-01,	-6.91993e-02	
209	1.242479e+08	-2.03033e-01,	-6.36122e-02	
210	1.271480e+08	-1.93051e-01,	-5.85168e-02	
211	1.301159e+08	-1.83582e-01,	-5.38654e-02	
212	1.331529e+08	-1.74599e-01,	-4.96151e-02	
213	1.362609e+08	-1.66077e-01,	-4.57278e-02	
214	1.394414e+08	-1.57991e-01,	-4.21694e-02	
215	1.426962e+08	-1.50318e-01,	-3.89093e-02	
216	1.460269e+08	-1.43036e-01,	-3.59201e-02	
217	1.494354e+08	-1.36124e-01,	-3.31771e-02	
218	1.529234e+08	-1.29563e-01,	-3.06582e-02	
219	1.564928e+08	-1.23332e-01,	-2.83434e-02	
220	1.601456e+08	-1.17416e-01,	-2.62147e-02	
221	1.638836e+08	-1.11796e-01,	-2.42558e-02	
222	1.677088e+08	-1.06457e-01,	-2.24522e-02	
223	1.716234e+08	-1.01385e-01,	-2.07904e-02	
224	1.756293e+08	-9.65644e-02,	-1.92585e-02	
225	1.797287e+08	-9.19828e-02,	-1.78455e-02	
226	1.839239e+08	-8.76275e-02,	-1.65416e-02	
227	1.882169e+08	-8.34865e-02,	-1.53377e-02	
228	1.926101e+08	-7.95487e-02,	-1.42255e-02	

Index   frequency       v(3)                            
--------------------------------------------------------------------------------
229	1.971059e+08	-7.58035e-02,	-1.31977e-02	
230	2.017066e+08	-7.22409e-02,	-1.22475e-02	
231	2.064147e+08	-6.88516e-02,	-1.13685e-02	
232	2.112327e+08	-6.56266e-02,	-1.05552e-02	
233	2.161632e+08	-6.25576e-02,	-9.80230e-03	
234	2.212087e+08	-5.96365e-02,	-9.10514e-03	
235	2.263720e+08	-5.68559e-02,	-8.45933e-03	
236	2.316559e+08	-5.42087e-02,	-7.86090e-03	
237	2.370630e+08	-5.16882e-02,	-7.30620e-03	
238	2.425964e+08	-4.92881e-02,	-6.79187e-03	
239	2.482589e+08	-4.70022e-02,	-6.31485e-03	
240	2.540536e+08	-4.48250e-02,	-5.87230e-03	
241	2.599836e+08	-4.27510e-02,	-5.46162e-03	
242	2.660519e+08	-4.07752e-02,	-5.08043e-03	
243	2.722619e+08	-3.88926e-02,	-4.72652e-03	
244	2.786169e+08	-3.70989e-02,	-4.39786e-03	
245	2.851202e+08	-3.53895e-02,	-4.09260e-03	
246	2.917753e+08	-3.37604e-02,	-3.80899e-03	
247	2.985857e+08	-3.22077e-02,	-3.54546e-03	
248	3.055551e+08	-3.07277e-02,	-3.30053e-03	
249	3.126872e+08	-2.93169e-02,	-3.07286e-03	
250	3.199857e+08	-2.79718e-02,	-2.86118e-03	
251	3.274546e+08	-2.66895e-02,	-2.66435e-03	
252	3.350978e+08	-2.54668e-02,	-2.48129e-03	
253	3.429195e+08	-2.43010e-02,	-2.31102e-03	
254	3.509237e+08	-2.31893e-02,	-2.15261e-03	
255	3.591147e+08	-2.21291e-02,	-2.00522e-03	
256	3.674969e+08	-2.11179e-02,	-1.86807e-03	
257	3.760748e+08	-2.01536e-02,	-1.74043e-03	
258	3.848529e+08	-1.92338e-02,	-1.62163e-03	
259	3.938359e+08	-1.83564e-02,	-1.51104e-03	
260	4.030285e+08	-1.75195e-02,	-1.40808e-03	
261	4.124358e+08	-1.67211e-02,	-1.31221e-03	
262	4.220626e+08	-1.59594e-02,	-1.22295e-03	
263	4.319141e+08	-1.52328e-02,	-1.13982e-03	
264	4.419956e+08	-1.45396e-02,	-1.06240e-03	
265	4.523123e+08	-1.38781e-02,	-9.90282e-04	
266	4.628699e+08	-1.32470e-02,	-9.23109e-04	
267	4.736739e+08	-1.26449e-02,	-8.60533e-04	
268	4.847301e+08	-1.20703e-02,	-8.02233e-04	
269	4.960444e+08	-1.15220e-02,	-7.47916e-04	
270	5.076227e+08	-1.09987e-02,	-6.97304e-04	
271	5.194713e+08	-1.04994e-02,	-6.50142e-04	
272	5.315965e+08	-1.00229e-02,	-6.06192e-04	
273	5.440046e+08	-9.56819e-03,	-5.65233e-04	
274	5.567024e+08	-9.13419e-03,	-5.27059e-04	
275	5.696966e+08	-8.71998e-03,	-4.91479e-04	
276	5.829941e+08	-8.32466e-03,	-4.58314e-04	
277	5.966020e+08	-7.94734e-03,	-4.27401e-04	
278	6.105275e+08	-7.58721e-03,	-3.98583e-04	
279	6.247780e+08	-7.24347e-03,	-3.71718e-04	
280	6.393612e+08	-6.91537e-03,	-3.46673e-04	
281	6.542847e+08	-6.60220e-03,	-3.23323e-04	
282	6.695566e+08	-6.30326e-03,	-3.01553e-04	
283	6.851850e+08	-6.01791e-03,	-2.81255e-04	
284	7.011781e+08	-5.74553e-03,	-2.62328e-04	
285	7.175445e+08	-5.48551e-03,	-2.44680e-04	
286	7.342930e+08	-5.23731e-03,	-2.28224e-04	

Index   frequency       v(3)                            
--------------------------------------------------------------------------------
287	7.514324e+08	-5.00036e-03,	-2.12879e-04	
288	7.689718e+08	-4.77417e-03,	-1.98568e-04	
289	7.869207e+08	-4.55825e-03,	-1.85223e-04	
290	8.052885e+08	-4.35211e-03,	-1.72778e-04	
291	8.240850e+08	-4.15532e-03,	-1.61171e-04	
292	8.433202e+08	-3.96745e-03,	-1.50346e-04	
293	8.630045e+08	-3.78810e-03,	-1.40250e-04	
294	8.831482e+08	-3.61687e-03,	-1.30834e-04	
295	9.037620e+08	-3.45340e-03,	-1.22051e-04	
296	9.248571e+08	-3.29733e-03,	-1.13859e-04	
297	9.464445e+08	-3.14833e-03,	-1.06219e-04	
298	9.685358e+08	-3.00607e-03,	-9.90921e-05	
299	9.911427e+08	-2.87026e-03,	-9.24445e-05	
300	1.014277e+09	-2.74059e-03,	-8.62437e-05	
301	1.037952e+09	-2.61679e-03,	-8.04596e-05	
302	1.062179e+09	-2.49859e-03,	-7.50641e-05	
303	1.086972e+09	-2.38574e-03,	-7.00310e-05	
304	1.112343e+09	-2.27799e-03,	-6.53360e-05	
305	1.138307e+09	-2.17512e-03,	-6.09562e-05	
306	1.164876e+09	-2.07689e-03,	-5.68704e-05	
307	1.192066e+09	-1.98311e-03,	-5.30589e-05	
308	1.219891e+09	-1.89357e-03,	-4.95031e-05	
309	1.248364e+09	-1.80808e-03,	-4.61860e-05	
310	1.277503e+09	-1.72645e-03,	-4.30914e-05	
311	1.307322e+09	-1.64851e-03,	-4.02044e-05	
312	1.337836e+09	-1.57409e-03,	-3.75111e-05	
313	1.369063e+09	-1.50303e-03,	-3.49983e-05	
314	1.401019e+09	-1.43519e-03,	-3.26541e-05	
315	1.433721e+09	-1.37041e-03,	-3.04670e-05	
316	1.467186e+09	-1.30855e-03,	-2.84266e-05	
317	1.501432e+09	-1.24949e-03,	-2.65229e-05	
318	1.536477e+09	-1.19310e-03,	-2.47468e-05	
319	1.572341e+09	-1.13925e-03,	-2.30897e-05	
320	1.609041e+09	-1.08784e-03,	-2.15437e-05	
321	1.646598e+09	-1.03875e-03,	-2.01013e-05	
322	1.685032e+09	-9.91875e-04,	-1.87555e-05	
323	1.724363e+09	-9.47116e-04,	-1.74999e-05	
324	1.764612e+09	-9.04379e-04,	-1.63284e-05	
325	1.805800e+09	-8.63571e-04,	-1.52354e-05	
326	1.847950e+09	-8.24605e-04,	-1.42156e-05	
327	1.891084e+09	-7.87399e-04,	-1.32640e-05	
328	1.935224e+09	-7.51872e-04,	-1.23763e-05	
329	1.980395e+09	-7.17949e-04,	-1.15479e-05	
330	2.026620e+09	-6.85557e-04,	-1.07750e-05	
331	2.073924e+09	-6.54627e-04,	-1.00539e-05	
332	2.122332e+09	-6.25093e-04,	-9.38108e-06	
333	2.171871e+09	-5.96892e-04,	-8.75329e-06	
334	2.222565e+09	-5.69964e-04,	-8.16752e-06	
335	2.274443e+09	-5.44251e-04,	-7.62097e-06	
336	2.327531e+09	-5.19698e-04,	-7.11101e-06	
337	2.381859e+09	-4.96253e-04,	-6.63519e-06	
338	2.437455e+09	-4.73867e-04,	-6.19121e-06	
339	2.494348e+09	-4.52490e-04,	-5.77695e-06	
340	2.552570e+09	-4.32078e-04,	-5.39042e-06	
341	2.612150e+09	-4.12588e-04,	-5.02976e-06	
342	2.673121e+09	-3.93976e-04,	-4.69324e-06	
343	2.735515e+09	-3.76204e-04,	-4.37924e-06	
344	2.799366e+09	-3.59235e-04,	-4.08625e-06	

Index   frequency       v(3)                            
--------------------------------------------------------------------------------
345	2.864707e+09	-3.43030e-04,	-3.81287e-06	
346	2.931573e+09	-3.27557e-04,	-3.55778e-06	
347	3.000000e+09	-3.12782e-04,	-3.31976e-06	


Total analysis time (seconds) = 0.0032742

Total elapsed time (seconds) = 0.045 

Total DRAM available = 65490.027 MB.
DRAM currently available = 45968.871 MB.
Maximum ngspice program size =   13.824 MB.
Current ngspice program size =   13.820 MB.

